#! /usr/bin/vvp
:ivl_version "12.0 (stable)";
:ivl_delay_selection "TYPICAL";
:vpi_time_precision - 12;
:vpi_module "/usr/lib/x86_64-linux-gnu/ivl/system.vpi";
:vpi_module "/usr/lib/x86_64-linux-gnu/ivl/vhdl_sys.vpi";
:vpi_module "/usr/lib/x86_64-linux-gnu/ivl/vhdl_textio.vpi";
:vpi_module "/usr/lib/x86_64-linux-gnu/ivl/v2005_math.vpi";
:vpi_module "/usr/lib/x86_64-linux-gnu/ivl/va_math.vpi";
S_0x593b179b1f80 .scope module, "apb_top_tb" "apb_top_tb" 2 3;
 .timescale -9 -12;
v0x593b179e86d0_0 .var "addr", 31 0;
v0x593b179e87b0_0 .var "ascon_PRDATA", 31 0;
v0x593b179e88c0_0 .var "ascon_PREADY", 0 0;
v0x593b179e89b0_0 .var "clint_PRDATA", 31 0;
v0x593b179e8aa0_0 .var "clint_PREADY", 0 0;
v0x593b179e8be0_0 .var "clk", 0 0;
v0x593b179e8cd0_0 .var "gpio_PRDATA", 31 0;
v0x593b179e8de0_0 .var "gpio_PREADY", 0 0;
v0x593b179e8ed0_0 .var "i2c_PRDATA", 31 0;
v0x593b179e8f90_0 .var "i2c_PREADY", 0 0;
v0x593b179e9080_0 .var "mem_rdata", 31 0;
v0x593b179e9190_0 .var "mem_read", 0 0;
v0x593b179e9280_0 .var "mem_write", 0 0;
v0x593b179e9320_0 .var "plic_PRDATA", 31 0;
v0x593b179e9410_0 .var "plic_PREADY", 0 0;
v0x593b179e9500_0 .net "rdata", 31 0, v0x593b179e4fe0_0;  1 drivers
v0x593b179e9610_0 .var "rst", 0 0;
v0x593b179e9700_0 .var "spi_PRDATA", 31 0;
v0x593b179e9810_0 .var "spi_PREADY", 0 0;
v0x593b179e9900_0 .net "stall_mem", 0 0, L_0x593b179eb210;  1 drivers
v0x593b179e99f0_0 .var "timer_PRDATA", 31 0;
v0x593b179e9b00_0 .var "timer_PREADY", 0 0;
v0x593b179e9bf0_0 .var "uart_PRDATA", 31 0;
v0x593b179e9d00_0 .var "uart_PREADY", 0 0;
v0x593b179e9df0_0 .var "wdata", 31 0;
S_0x593b179b1820 .scope module, "dut" "apb_top" 2 46, 3 1 0, S_0x593b179b1f80;
 .timescale 0 0;
    .port_info 0 /INPUT 1 "clk";
    .port_info 1 /INPUT 1 "rst";
    .port_info 2 /INPUT 32 "addr";
    .port_info 3 /INPUT 32 "wdata";
    .port_info 4 /INPUT 1 "mem_read";
    .port_info 5 /INPUT 1 "mem_write";
    .port_info 6 /OUTPUT 32 "rdata";
    .port_info 7 /OUTPUT 1 "stall_mem";
    .port_info 8 /INPUT 32 "mem_rdata";
    .port_info 9 /INPUT 32 "uart_PRDATA";
    .port_info 10 /INPUT 1 "uart_PREADY";
    .port_info 11 /INPUT 32 "gpio_PRDATA";
    .port_info 12 /INPUT 1 "gpio_PREADY";
    .port_info 13 /INPUT 32 "spi_PRDATA";
    .port_info 14 /INPUT 1 "spi_PREADY";
    .port_info 15 /INPUT 32 "ascon_PRDATA";
    .port_info 16 /INPUT 1 "ascon_PREADY";
    .port_info 17 /INPUT 32 "i2c_PRDATA";
    .port_info 18 /INPUT 1 "i2c_PREADY";
    .port_info 19 /INPUT 32 "plic_PRDATA";
    .port_info 20 /INPUT 1 "plic_PREADY";
    .port_info 21 /INPUT 32 "timer_PRDATA";
    .port_info 22 /INPUT 1 "timer_PREADY";
    .port_info 23 /INPUT 32 "clint_PRDATA";
    .port_info 24 /INPUT 1 "clint_PREADY";
L_0x593b179ea3e0 .functor NOT 1, v0x593b179e4510_0, C4<0>, C4<0>, C4<0>;
L_0x593b179ea450 .functor AND 1, v0x593b179e9190_0, L_0x593b179ea3e0, C4<1>, C4<1>;
L_0x593b179ea510 .functor NOT 1, v0x593b179e4510_0, C4<0>, C4<0>, C4<0>;
L_0x593b179ea580 .functor AND 1, v0x593b179e9280_0, L_0x593b179ea510, C4<1>, C4<1>;
v0x593b179e5440_0 .net "PADDR", 31 0, v0x593b179e24e0_0;  1 drivers
v0x593b179e5570_0 .net "PADDR_out", 31 0, L_0x593b179ea7c0;  1 drivers
v0x593b179e5630_0 .net "PENABLE", 0 0, v0x593b179e25a0_0;  1 drivers
v0x593b179e5750_0 .net "PENABLE_out", 0 0, L_0x593b179ea640;  1 drivers
v0x593b179e57f0_0 .net "PRDATA", 31 0, v0x593b179df910_0;  1 drivers
v0x593b179e5930_0 .net "PREADY", 0 0, v0x593b179dfa40_0;  1 drivers
v0x593b179e5a20_0 .net "PSEL", 0 0, v0x593b179e2780_0;  1 drivers
v0x593b179e5b10_0 .net "PWDATA", 31 0, v0x593b179e2870_0;  1 drivers
v0x593b179e5c00_0 .net "PWDATA_out", 31 0, L_0x593b179ea880;  1 drivers
v0x593b179e5ca0_0 .net "PWRITE", 0 0, v0x593b179e2940_0;  1 drivers
v0x593b179e5d40_0 .net "PWRITE_out", 0 0, L_0x593b179ea700;  1 drivers
v0x593b179e5de0_0 .net *"_ivl_0", 0 0, L_0x593b179ea3e0;  1 drivers
v0x593b179e5e80_0 .net *"_ivl_4", 0 0, L_0x593b179ea510;  1 drivers
v0x593b179e5f60_0 .net "addr", 31 0, v0x593b179e86d0_0;  1 drivers
v0x593b179e6070_0 .net "apb_busy", 0 0, L_0x593b179ea2d0;  1 drivers
v0x593b179e6160_0 .net "apb_rdata", 31 0, v0x593b179e34b0_0;  1 drivers
v0x593b179e6270_0 .net "apb_ready", 0 0, v0x593b179e3650_0;  1 drivers
v0x593b179e6310_0 .net "apb_state", 1 0, L_0x593b179adde0;  1 drivers
v0x593b179e63b0_0 .net "ascon_PRDATA", 31 0, v0x593b179e87b0_0;  1 drivers
v0x593b179e6450_0 .net "ascon_PREADY", 0 0, v0x593b179e88c0_0;  1 drivers
v0x593b179e64f0_0 .net "ascon_PSEL", 0 0, L_0x593b179ea940;  1 drivers
v0x593b179e6590_0 .net "clint_PRDATA", 31 0, v0x593b179e89b0_0;  1 drivers
v0x593b179e6630_0 .net "clint_PREADY", 0 0, v0x593b179e8aa0_0;  1 drivers
v0x593b179e66d0_0 .net "clint_PSEL", 0 0, L_0x593b179eb070;  1 drivers
v0x593b179e67a0_0 .net "clk", 0 0, v0x593b179e8be0_0;  1 drivers
v0x593b179e6870_0 .net "gpio_PRDATA", 31 0, v0x593b179e8cd0_0;  1 drivers
v0x593b179e6940_0 .net "gpio_PREADY", 0 0, v0x593b179e8de0_0;  1 drivers
v0x593b179e6a10_0 .net "gpio_PSEL", 0 0, L_0x593b179eab90;  1 drivers
v0x593b179e6ae0_0 .net "i2c_PRDATA", 31 0, v0x593b179e8ed0_0;  1 drivers
v0x593b179e6bb0_0 .net "i2c_PREADY", 0 0, v0x593b179e8f90_0;  1 drivers
v0x593b179e6c80_0 .net "i2c_PSEL", 0 0, L_0x593b179ead10;  1 drivers
v0x593b179e6d50_0 .net "mem_rdata", 31 0, v0x593b179e9080_0;  1 drivers
v0x593b179e6e20_0 .net "mem_read", 0 0, v0x593b179e9190_0;  1 drivers
v0x593b179e7100_0 .net "mem_write", 0 0, v0x593b179e9280_0;  1 drivers
v0x593b179e71a0_0 .net "plic_PRDATA", 31 0, v0x593b179e9320_0;  1 drivers
v0x593b179e7270_0 .net "plic_PREADY", 0 0, v0x593b179e9410_0;  1 drivers
v0x593b179e7340_0 .net "plic_PSEL", 0 0, L_0x593b179eadd0;  1 drivers
v0x593b179e7410_0 .net "rdata", 31 0, v0x593b179e4fe0_0;  alias, 1 drivers
v0x593b179e74e0_0 .net "rst", 0 0, v0x593b179e9610_0;  1 drivers
v0x593b179e75b0_0 .net "sel_ascon", 0 0, v0x593b179e4180_0;  1 drivers
v0x593b179e76a0_0 .net "sel_clint", 0 0, v0x593b179e4250_0;  1 drivers
v0x593b179e7790_0 .net "sel_gpio", 0 0, v0x593b179e4350_0;  1 drivers
v0x593b179e7880_0 .net "sel_i2c", 0 0, v0x593b179e4420_0;  1 drivers
v0x593b179e7970_0 .net "sel_mem", 0 0, v0x593b179e4510_0;  1 drivers
v0x593b179e7a60_0 .net "sel_plic", 0 0, v0x593b179e45b0_0;  1 drivers
v0x593b179e7b50_0 .net "sel_spi", 0 0, v0x593b179e4680_0;  1 drivers
v0x593b179e7c40_0 .net "sel_timer", 0 0, v0x593b179e4750_0;  1 drivers
v0x593b179e7d30_0 .net "sel_uart", 0 0, v0x593b179e4820_0;  1 drivers
v0x593b179e7e20_0 .net "spi_PRDATA", 31 0, v0x593b179e9700_0;  1 drivers
v0x593b179e7ec0_0 .net "spi_PREADY", 0 0, v0x593b179e9810_0;  1 drivers
v0x593b179e7f60_0 .net "spi_PSEL", 0 0, L_0x593b179eac00;  1 drivers
v0x593b179e8000_0 .net "stall_mem", 0 0, L_0x593b179eb210;  alias, 1 drivers
v0x593b179e80a0_0 .net "timer_PRDATA", 31 0, v0x593b179e99f0_0;  1 drivers
v0x593b179e8140_0 .net "timer_PREADY", 0 0, v0x593b179e9b00_0;  1 drivers
v0x593b179e81e0_0 .net "timer_PSEL", 0 0, L_0x593b179eb000;  1 drivers
v0x593b179e8280_0 .net "uart_PRDATA", 31 0, v0x593b179e9bf0_0;  1 drivers
v0x593b179e8320_0 .net "uart_PREADY", 0 0, v0x593b179e9d00_0;  1 drivers
v0x593b179e83c0_0 .net "uart_PSEL", 0 0, L_0x593b179eaa00;  1 drivers
v0x593b179e8490_0 .net "wdata", 31 0, v0x593b179e9df0_0;  1 drivers
S_0x593b179b1bd0 .scope module, "u_apb_bus" "apb_bus" 3 129, 4 1 0, S_0x593b179b1820;
 .timescale 0 0;
    .port_info 0 /INPUT 1 "PSEL";
    .port_info 1 /INPUT 1 "PENABLE";
    .port_info 2 /INPUT 1 "PWRITE";
    .port_info 3 /INPUT 32 "PADDR";
    .port_info 4 /INPUT 32 "PWDATA";
    .port_info 5 /OUTPUT 32 "PRDATA";
    .port_info 6 /OUTPUT 1 "PREADY";
    .port_info 7 /INPUT 1 "sel_ascon";
    .port_info 8 /INPUT 1 "sel_uart";
    .port_info 9 /INPUT 1 "sel_gpio";
    .port_info 10 /INPUT 1 "sel_spi";
    .port_info 11 /INPUT 1 "sel_i2c";
    .port_info 12 /INPUT 1 "sel_plic";
    .port_info 13 /INPUT 1 "sel_timer";
    .port_info 14 /INPUT 1 "sel_clint";
    .port_info 15 /INPUT 32 "ascon_PRDATA";
    .port_info 16 /INPUT 32 "uart_PRDATA";
    .port_info 17 /INPUT 32 "gpio_PRDATA";
    .port_info 18 /INPUT 32 "spi_PRDATA";
    .port_info 19 /INPUT 32 "i2c_PRDATA";
    .port_info 20 /INPUT 32 "plic_PRDATA";
    .port_info 21 /INPUT 32 "timer_PRDATA";
    .port_info 22 /INPUT 32 "clint_PRDATA";
    .port_info 23 /INPUT 1 "ascon_PREADY";
    .port_info 24 /INPUT 1 "uart_PREADY";
    .port_info 25 /INPUT 1 "gpio_PREADY";
    .port_info 26 /INPUT 1 "spi_PREADY";
    .port_info 27 /INPUT 1 "i2c_PREADY";
    .port_info 28 /INPUT 1 "plic_PREADY";
    .port_info 29 /INPUT 1 "timer_PREADY";
    .port_info 30 /INPUT 1 "clint_PREADY";
    .port_info 31 /OUTPUT 1 "ascon_PSEL";
    .port_info 32 /OUTPUT 1 "uart_PSEL";
    .port_info 33 /OUTPUT 1 "gpio_PSEL";
    .port_info 34 /OUTPUT 1 "spi_PSEL";
    .port_info 35 /OUTPUT 1 "i2c_PSEL";
    .port_info 36 /OUTPUT 1 "plic_PSEL";
    .port_info 37 /OUTPUT 1 "timer_PSEL";
    .port_info 38 /OUTPUT 1 "clint_PSEL";
    .port_info 39 /OUTPUT 1 "PENABLE_out";
    .port_info 40 /OUTPUT 1 "PWRITE_out";
    .port_info 41 /OUTPUT 32 "PADDR_out";
    .port_info 42 /OUTPUT 32 "PWDATA_out";
L_0x593b179ea640 .functor BUFZ 1, v0x593b179e25a0_0, C4<0>, C4<0>, C4<0>;
L_0x593b179ea700 .functor BUFZ 1, v0x593b179e2940_0, C4<0>, C4<0>, C4<0>;
L_0x593b179ea7c0 .functor BUFZ 32, v0x593b179e24e0_0, C4<00000000000000000000000000000000>, C4<00000000000000000000000000000000>, C4<00000000000000000000000000000000>;
L_0x593b179ea880 .functor BUFZ 32, v0x593b179e2870_0, C4<00000000000000000000000000000000>, C4<00000000000000000000000000000000>, C4<00000000000000000000000000000000>;
L_0x593b179ea940 .functor AND 1, v0x593b179e2780_0, v0x593b179e4180_0, C4<1>, C4<1>;
L_0x593b179eaa00 .functor AND 1, v0x593b179e2780_0, v0x593b179e4820_0, C4<1>, C4<1>;
L_0x593b179eab90 .functor AND 1, v0x593b179e2780_0, v0x593b179e4350_0, C4<1>, C4<1>;
L_0x593b179eac00 .functor AND 1, v0x593b179e2780_0, v0x593b179e4680_0, C4<1>, C4<1>;
L_0x593b179ead10 .functor AND 1, v0x593b179e2780_0, v0x593b179e4420_0, C4<1>, C4<1>;
L_0x593b179eadd0 .functor AND 1, v0x593b179e2780_0, v0x593b179e45b0_0, C4<1>, C4<1>;
L_0x593b179eb000 .functor AND 1, v0x593b179e2780_0, v0x593b179e4750_0, C4<1>, C4<1>;
L_0x593b179eb070 .functor AND 1, v0x593b179e2780_0, v0x593b179e4250_0, C4<1>, C4<1>;
v0x593b179adf40_0 .net "PADDR", 31 0, v0x593b179e24e0_0;  alias, 1 drivers
v0x593b179df6d0_0 .net "PADDR_out", 31 0, L_0x593b179ea7c0;  alias, 1 drivers
v0x593b179df7b0_0 .net "PENABLE", 0 0, v0x593b179e25a0_0;  alias, 1 drivers
v0x593b179df850_0 .net "PENABLE_out", 0 0, L_0x593b179ea640;  alias, 1 drivers
v0x593b179df910_0 .var "PRDATA", 31 0;
v0x593b179dfa40_0 .var "PREADY", 0 0;
v0x593b179dfb00_0 .net "PSEL", 0 0, v0x593b179e2780_0;  alias, 1 drivers
v0x593b179dfbc0_0 .net "PWDATA", 31 0, v0x593b179e2870_0;  alias, 1 drivers
v0x593b179dfca0_0 .net "PWDATA_out", 31 0, L_0x593b179ea880;  alias, 1 drivers
v0x593b179dfd80_0 .net "PWRITE", 0 0, v0x593b179e2940_0;  alias, 1 drivers
v0x593b179dfe40_0 .net "PWRITE_out", 0 0, L_0x593b179ea700;  alias, 1 drivers
v0x593b179dff00_0 .net "ascon_PRDATA", 31 0, v0x593b179e87b0_0;  alias, 1 drivers
v0x593b179dffe0_0 .net "ascon_PREADY", 0 0, v0x593b179e88c0_0;  alias, 1 drivers
v0x593b179e00a0_0 .net "ascon_PSEL", 0 0, L_0x593b179ea940;  alias, 1 drivers
v0x593b179e0160_0 .net "clint_PRDATA", 31 0, v0x593b179e89b0_0;  alias, 1 drivers
v0x593b179e0240_0 .net "clint_PREADY", 0 0, v0x593b179e8aa0_0;  alias, 1 drivers
v0x593b179e0300_0 .net "clint_PSEL", 0 0, L_0x593b179eb070;  alias, 1 drivers
v0x593b179e03c0_0 .net "gpio_PRDATA", 31 0, v0x593b179e8cd0_0;  alias, 1 drivers
v0x593b179e04a0_0 .net "gpio_PREADY", 0 0, v0x593b179e8de0_0;  alias, 1 drivers
v0x593b179e0560_0 .net "gpio_PSEL", 0 0, L_0x593b179eab90;  alias, 1 drivers
v0x593b179e0620_0 .net "i2c_PRDATA", 31 0, v0x593b179e8ed0_0;  alias, 1 drivers
v0x593b179e0700_0 .net "i2c_PREADY", 0 0, v0x593b179e8f90_0;  alias, 1 drivers
v0x593b179e07c0_0 .net "i2c_PSEL", 0 0, L_0x593b179ead10;  alias, 1 drivers
v0x593b179e0880_0 .net "plic_PRDATA", 31 0, v0x593b179e9320_0;  alias, 1 drivers
v0x593b179e0960_0 .net "plic_PREADY", 0 0, v0x593b179e9410_0;  alias, 1 drivers
v0x593b179e0a20_0 .net "plic_PSEL", 0 0, L_0x593b179eadd0;  alias, 1 drivers
v0x593b179e0ae0_0 .net "sel_ascon", 0 0, v0x593b179e4180_0;  alias, 1 drivers
v0x593b179e0ba0_0 .net "sel_clint", 0 0, v0x593b179e4250_0;  alias, 1 drivers
v0x593b179e0c60_0 .net "sel_gpio", 0 0, v0x593b179e4350_0;  alias, 1 drivers
v0x593b179e0d20_0 .net "sel_i2c", 0 0, v0x593b179e4420_0;  alias, 1 drivers
v0x593b179e0de0_0 .net "sel_plic", 0 0, v0x593b179e45b0_0;  alias, 1 drivers
v0x593b179e0ea0_0 .net "sel_spi", 0 0, v0x593b179e4680_0;  alias, 1 drivers
v0x593b179e0f60_0 .net "sel_timer", 0 0, v0x593b179e4750_0;  alias, 1 drivers
v0x593b179e1230_0 .net "sel_uart", 0 0, v0x593b179e4820_0;  alias, 1 drivers
v0x593b179e12f0_0 .net "spi_PRDATA", 31 0, v0x593b179e9700_0;  alias, 1 drivers
v0x593b179e13d0_0 .net "spi_PREADY", 0 0, v0x593b179e9810_0;  alias, 1 drivers
v0x593b179e1490_0 .net "spi_PSEL", 0 0, L_0x593b179eac00;  alias, 1 drivers
v0x593b179e1550_0 .net "timer_PRDATA", 31 0, v0x593b179e99f0_0;  alias, 1 drivers
v0x593b179e1630_0 .net "timer_PREADY", 0 0, v0x593b179e9b00_0;  alias, 1 drivers
v0x593b179e16f0_0 .net "timer_PSEL", 0 0, L_0x593b179eb000;  alias, 1 drivers
v0x593b179e17b0_0 .net "uart_PRDATA", 31 0, v0x593b179e9bf0_0;  alias, 1 drivers
v0x593b179e1890_0 .net "uart_PREADY", 0 0, v0x593b179e9d00_0;  alias, 1 drivers
v0x593b179e1950_0 .net "uart_PSEL", 0 0, L_0x593b179eaa00;  alias, 1 drivers
E_0x593b17962490/0 .event anyedge, v0x593b179dffe0_0, v0x593b179e0ae0_0, v0x593b179e1890_0, v0x593b179e1230_0;
E_0x593b17962490/1 .event anyedge, v0x593b179e04a0_0, v0x593b179e0c60_0, v0x593b179e13d0_0, v0x593b179e0ea0_0;
E_0x593b17962490/2 .event anyedge, v0x593b179e0700_0, v0x593b179e0d20_0, v0x593b179e0960_0, v0x593b179e0de0_0;
E_0x593b17962490/3 .event anyedge, v0x593b179e1630_0, v0x593b179e0f60_0, v0x593b179e0240_0, v0x593b179e0ba0_0;
E_0x593b17962490 .event/or E_0x593b17962490/0, E_0x593b17962490/1, E_0x593b17962490/2, E_0x593b17962490/3;
E_0x593b1794d1d0/0 .event anyedge, v0x593b179dff00_0, v0x593b179e0ae0_0, v0x593b179e17b0_0, v0x593b179e1230_0;
E_0x593b1794d1d0/1 .event anyedge, v0x593b179e03c0_0, v0x593b179e0c60_0, v0x593b179e12f0_0, v0x593b179e0ea0_0;
E_0x593b1794d1d0/2 .event anyedge, v0x593b179e0620_0, v0x593b179e0d20_0, v0x593b179e0880_0, v0x593b179e0de0_0;
E_0x593b1794d1d0/3 .event anyedge, v0x593b179e1550_0, v0x593b179e0f60_0, v0x593b179e0160_0, v0x593b179e0ba0_0;
E_0x593b1794d1d0 .event/or E_0x593b1794d1d0/0, E_0x593b1794d1d0/1, E_0x593b1794d1d0/2, E_0x593b1794d1d0/3;
S_0x593b179e1f70 .scope module, "u_apb_master" "apb_master" 3 101, 5 1 0, S_0x593b179b1820;
 .timescale 0 0;
    .port_info 0 /INPUT 1 "clk";
    .port_info 1 /INPUT 1 "rst";
    .port_info 2 /INPUT 32 "addr";
    .port_info 3 /INPUT 32 "wdata";
    .port_info 4 /INPUT 1 "mem_read";
    .port_info 5 /INPUT 1 "mem_write";
    .port_info 6 /OUTPUT 1 "PSEL";
    .port_info 7 /OUTPUT 1 "PENABLE";
    .port_info 8 /OUTPUT 1 "PWRITE";
    .port_info 9 /OUTPUT 32 "PADDR";
    .port_info 10 /OUTPUT 32 "PWDATA";
    .port_info 11 /INPUT 32 "PRDATA";
    .port_info 12 /INPUT 1 "PREADY";
    .port_info 13 /OUTPUT 32 "rdata";
    .port_info 14 /OUTPUT 1 "ready";
    .port_info 15 /OUTPUT 2 "debug_state";
    .port_info 16 /OUTPUT 1 "busy";
P_0x593b179a76b0 .param/l "ACCESS" 0 5 32, C4<10>;
P_0x593b179a76f0 .param/l "IDLE" 0 5 30, C4<00>;
P_0x593b179a7730 .param/l "SETUP" 0 5 31, C4<01>;
L_0x593b179adde0 .functor BUFZ 2, v0x593b179e37d0_0, C4<00>, C4<00>, C4<00>;
L_0x593b179ea060 .functor AND 1, L_0x593b179e9f70, v0x593b179dfa40_0, C4<1>, C4<1>;
L_0x593b179ea210 .functor NOT 1, L_0x593b179ea060, C4<0>, C4<0>, C4<0>;
L_0x593b179ea2d0 .functor AND 1, L_0x593b179ea120, L_0x593b179ea210, C4<1>, C4<1>;
v0x593b179e24e0_0 .var "PADDR", 31 0;
v0x593b179e25a0_0 .var "PENABLE", 0 0;
v0x593b179e2640_0 .net "PRDATA", 31 0, v0x593b179df910_0;  alias, 1 drivers
v0x593b179e26e0_0 .net "PREADY", 0 0, v0x593b179dfa40_0;  alias, 1 drivers
v0x593b179e2780_0 .var "PSEL", 0 0;
v0x593b179e2870_0 .var "PWDATA", 31 0;
v0x593b179e2940_0 .var "PWRITE", 0 0;
v0x593b179e2a10_0 .net *"_ivl_10", 0 0, L_0x593b179ea120;  1 drivers
v0x593b179e2ab0_0 .net *"_ivl_12", 0 0, L_0x593b179ea210;  1 drivers
L_0x77461e0a1018 .functor BUFT 1, C4<10>, C4<0>, C4<0>, C4<0>;
v0x593b179e2b50_0 .net/2u *"_ivl_2", 1 0, L_0x77461e0a1018;  1 drivers
v0x593b179e2bf0_0 .net *"_ivl_4", 0 0, L_0x593b179e9f70;  1 drivers
L_0x77461e0a1060 .functor BUFT 1, C4<00>, C4<0>, C4<0>, C4<0>;
v0x593b179e2c90_0 .net/2u *"_ivl_8", 1 0, L_0x77461e0a1060;  1 drivers
v0x593b179e2d70_0 .net "addr", 31 0, v0x593b179e86d0_0;  alias, 1 drivers
v0x593b179e2e50_0 .var "addr_reg", 31 0;
v0x593b179e2f30_0 .net "busy", 0 0, L_0x593b179ea2d0;  alias, 1 drivers
v0x593b179e2ff0_0 .net "clk", 0 0, v0x593b179e8be0_0;  alias, 1 drivers
v0x593b179e30b0_0 .net "debug_state", 1 0, L_0x593b179adde0;  alias, 1 drivers
v0x593b179e3190_0 .net "done", 0 0, L_0x593b179ea060;  1 drivers
v0x593b179e3250_0 .net "mem_read", 0 0, L_0x593b179ea450;  1 drivers
v0x593b179e3310_0 .net "mem_write", 0 0, L_0x593b179ea580;  1 drivers
v0x593b179e33d0_0 .var "next_state", 1 0;
v0x593b179e34b0_0 .var "rdata", 31 0;
v0x593b179e3590_0 .var "read_reg", 0 0;
v0x593b179e3650_0 .var "ready", 0 0;
v0x593b179e3710_0 .net "rst", 0 0, v0x593b179e9610_0;  alias, 1 drivers
v0x593b179e37d0_0 .var "state", 1 0;
v0x593b179e38b0_0 .net "wdata", 31 0, v0x593b179e9df0_0;  alias, 1 drivers
v0x593b179e3990_0 .var "wdata_reg", 31 0;
v0x593b179e3a70_0 .var "write_reg", 0 0;
E_0x593b179c60a0 .event posedge, v0x593b179e2ff0_0;
E_0x593b179c61f0/0 .event anyedge, v0x593b179e37d0_0, v0x593b179e3a70_0, v0x593b179e2e50_0, v0x593b179e3990_0;
E_0x593b179c61f0/1 .event anyedge, v0x593b179dfa40_0;
E_0x593b179c61f0 .event/or E_0x593b179c61f0/0, E_0x593b179c61f0/1;
E_0x593b179c6230 .event anyedge, v0x593b179e37d0_0, v0x593b179e3250_0, v0x593b179e3310_0, v0x593b179dfa40_0;
E_0x593b179c6270 .event posedge, v0x593b179e3710_0, v0x593b179e2ff0_0;
L_0x593b179e9f70 .cmp/eq 2, v0x593b179e37d0_0, L_0x77461e0a1018;
L_0x593b179ea120 .cmp/ne 2, v0x593b179e37d0_0, L_0x77461e0a1060;
S_0x593b179e3d50 .scope module, "u_decoder" "addr_decoder" 3 84, 6 1 0, S_0x593b179b1820;
 .timescale 0 0;
    .port_info 0 /INPUT 32 "addr";
    .port_info 1 /OUTPUT 1 "sel_mem";
    .port_info 2 /OUTPUT 1 "sel_ascon";
    .port_info 3 /OUTPUT 1 "sel_uart";
    .port_info 4 /OUTPUT 1 "sel_gpio";
    .port_info 5 /OUTPUT 1 "sel_spi";
    .port_info 6 /OUTPUT 1 "sel_i2c";
    .port_info 7 /OUTPUT 1 "sel_plic";
    .port_info 8 /OUTPUT 1 "sel_timer";
    .port_info 9 /OUTPUT 1 "sel_clint";
v0x593b179e4070_0 .net "addr", 31 0, v0x593b179e86d0_0;  alias, 1 drivers
v0x593b179e4180_0 .var "sel_ascon", 0 0;
v0x593b179e4250_0 .var "sel_clint", 0 0;
v0x593b179e4350_0 .var "sel_gpio", 0 0;
v0x593b179e4420_0 .var "sel_i2c", 0 0;
v0x593b179e4510_0 .var "sel_mem", 0 0;
v0x593b179e45b0_0 .var "sel_plic", 0 0;
v0x593b179e4680_0 .var "sel_spi", 0 0;
v0x593b179e4750_0 .var "sel_timer", 0 0;
v0x593b179e4820_0 .var "sel_uart", 0 0;
E_0x593b179e4010 .event anyedge, v0x593b179e2d70_0;
S_0x593b179e4970 .scope module, "u_mux" "mem_apb_mux" 3 188, 7 1 0, S_0x593b179b1820;
 .timescale 0 0;
    .port_info 0 /INPUT 1 "sel_mem";
    .port_info 1 /INPUT 1 "mem_read";
    .port_info 2 /INPUT 32 "r_data_mem";
    .port_info 3 /INPUT 32 "r_data_periph";
    .port_info 4 /INPUT 1 "busy_apb";
    .port_info 5 /OUTPUT 32 "r_data_out";
    .port_info 6 /OUTPUT 1 "stall_mem";
L_0x593b179eb1a0 .functor NOT 1, v0x593b179e4510_0, C4<0>, C4<0>, C4<0>;
L_0x593b179eb210 .functor AND 1, L_0x593b179eb1a0, L_0x593b179ea2d0, C4<1>, C4<1>;
v0x593b179e4c80_0 .net *"_ivl_0", 0 0, L_0x593b179eb1a0;  1 drivers
v0x593b179e4d80_0 .net "busy_apb", 0 0, L_0x593b179ea2d0;  alias, 1 drivers
v0x593b179e4e70_0 .net "mem_read", 0 0, v0x593b179e9190_0;  alias, 1 drivers
v0x593b179e4f40_0 .net "r_data_mem", 31 0, v0x593b179e9080_0;  alias, 1 drivers
v0x593b179e4fe0_0 .var "r_data_out", 31 0;
v0x593b179e5110_0 .net "r_data_periph", 31 0, v0x593b179e34b0_0;  alias, 1 drivers
v0x593b179e51d0_0 .net "sel_mem", 0 0, v0x593b179e4510_0;  alias, 1 drivers
v0x593b179e52a0_0 .net "stall_mem", 0 0, L_0x593b179eb210;  alias, 1 drivers
E_0x593b179e4bf0 .event anyedge, v0x593b179e4e70_0, v0x593b179e4510_0, v0x593b179e4f40_0, v0x593b179e34b0_0;
    .scope S_0x593b179e3d50;
T_0 ;
    %wait E_0x593b179e4010;
    %pushi/vec4 0, 0, 9;
    %split/vec4 1;
    %store/vec4 v0x593b179e4250_0, 0, 1;
    %split/vec4 1;
    %store/vec4 v0x593b179e4750_0, 0, 1;
    %split/vec4 1;
    %store/vec4 v0x593b179e45b0_0, 0, 1;
    %split/vec4 1;
    %store/vec4 v0x593b179e4420_0, 0, 1;
    %split/vec4 1;
    %store/vec4 v0x593b179e4680_0, 0, 1;
    %split/vec4 1;
    %store/vec4 v0x593b179e4350_0, 0, 1;
    %split/vec4 1;
    %store/vec4 v0x593b179e4820_0, 0, 1;
    %split/vec4 1;
    %store/vec4 v0x593b179e4180_0, 0, 1;
    %store/vec4 v0x593b179e4510_0, 0, 1;
    %load/vec4 v0x593b179e4070_0;
    %parti/s 20, 12, 5;
    %dup/vec4;
    %pushi/vec4 0, 0, 20;
    %cmp/u;
    %jmp/1 T_0.0, 6;
    %dup/vec4;
    %pushi/vec4 1, 0, 20;
    %cmp/u;
    %jmp/1 T_0.1, 6;
    %dup/vec4;
    %pushi/vec4 2, 0, 20;
    %cmp/u;
    %jmp/1 T_0.2, 6;
    %dup/vec4;
    %pushi/vec4 3, 0, 20;
    %cmp/u;
    %jmp/1 T_0.3, 6;
    %dup/vec4;
    %pushi/vec4 4, 0, 20;
    %cmp/u;
    %jmp/1 T_0.4, 6;
    %dup/vec4;
    %pushi/vec4 5, 0, 20;
    %cmp/u;
    %jmp/1 T_0.5, 6;
    %dup/vec4;
    %pushi/vec4 6, 0, 20;
    %cmp/u;
    %jmp/1 T_0.6, 6;
    %dup/vec4;
    %pushi/vec4 7, 0, 20;
    %cmp/u;
    %jmp/1 T_0.7, 6;
    %dup/vec4;
    %pushi/vec4 262144, 0, 20;
    %cmp/u;
    %jmp/1 T_0.8, 6;
    %dup/vec4;
    %pushi/vec4 262145, 0, 20;
    %cmp/u;
    %jmp/1 T_0.9, 6;
    %dup/vec4;
    %pushi/vec4 262146, 0, 20;
    %cmp/u;
    %jmp/1 T_0.10, 6;
    %dup/vec4;
    %pushi/vec4 262147, 0, 20;
    %cmp/u;
    %jmp/1 T_0.11, 6;
    %dup/vec4;
    %pushi/vec4 262148, 0, 20;
    %cmp/u;
    %jmp/1 T_0.12, 6;
    %dup/vec4;
    %pushi/vec4 262149, 0, 20;
    %cmp/u;
    %jmp/1 T_0.13, 6;
    %dup/vec4;
    %pushi/vec4 262150, 0, 20;
    %cmp/u;
    %jmp/1 T_0.14, 6;
    %dup/vec4;
    %pushi/vec4 262151, 0, 20;
    %cmp/u;
    %jmp/1 T_0.15, 6;
    %pushi/vec4 1, 0, 1;
    %store/vec4 v0x593b179e4510_0, 0, 1;
    %jmp T_0.17;
T_0.0 ;
    %pushi/vec4 1, 0, 1;
    %store/vec4 v0x593b179e4510_0, 0, 1;
    %jmp T_0.17;
T_0.1 ;
    %pushi/vec4 1, 0, 1;
    %store/vec4 v0x593b179e4510_0, 0, 1;
    %jmp T_0.17;
T_0.2 ;
    %pushi/vec4 1, 0, 1;
    %store/vec4 v0x593b179e4510_0, 0, 1;
    %jmp T_0.17;
T_0.3 ;
    %pushi/vec4 1, 0, 1;
    %store/vec4 v0x593b179e4510_0, 0, 1;
    %jmp T_0.17;
T_0.4 ;
    %pushi/vec4 1, 0, 1;
    %store/vec4 v0x593b179e4510_0, 0, 1;
    %jmp T_0.17;
T_0.5 ;
    %pushi/vec4 1, 0, 1;
    %store/vec4 v0x593b179e4510_0, 0, 1;
    %jmp T_0.17;
T_0.6 ;
    %pushi/vec4 1, 0, 1;
    %store/vec4 v0x593b179e4510_0, 0, 1;
    %jmp T_0.17;
T_0.7 ;
    %pushi/vec4 1, 0, 1;
    %store/vec4 v0x593b179e4510_0, 0, 1;
    %jmp T_0.17;
T_0.8 ;
    %pushi/vec4 1, 0, 1;
    %store/vec4 v0x593b179e4180_0, 0, 1;
    %jmp T_0.17;
T_0.9 ;
    %pushi/vec4 1, 0, 1;
    %store/vec4 v0x593b179e4820_0, 0, 1;
    %jmp T_0.17;
T_0.10 ;
    %pushi/vec4 1, 0, 1;
    %store/vec4 v0x593b179e4350_0, 0, 1;
    %jmp T_0.17;
T_0.11 ;
    %pushi/vec4 1, 0, 1;
    %store/vec4 v0x593b179e4680_0, 0, 1;
    %jmp T_0.17;
T_0.12 ;
    %pushi/vec4 1, 0, 1;
    %store/vec4 v0x593b179e4420_0, 0, 1;
    %jmp T_0.17;
T_0.13 ;
    %pushi/vec4 1, 0, 1;
    %store/vec4 v0x593b179e45b0_0, 0, 1;
    %jmp T_0.17;
T_0.14 ;
    %pushi/vec4 1, 0, 1;
    %store/vec4 v0x593b179e4750_0, 0, 1;
    %jmp T_0.17;
T_0.15 ;
    %pushi/vec4 1, 0, 1;
    %store/vec4 v0x593b179e4250_0, 0, 1;
    %jmp T_0.17;
T_0.17 ;
    %pop/vec4 1;
    %jmp T_0;
    .thread T_0, $push;
    .scope S_0x593b179e1f70;
T_1 ;
    %wait E_0x593b179c6270;
    %load/vec4 v0x593b179e3710_0;
    %flag_set/vec4 8;
    %jmp/0xz  T_1.0, 8;
    %pushi/vec4 0, 0, 2;
    %assign/vec4 v0x593b179e37d0_0, 0;
    %jmp T_1.1;
T_1.0 ;
    %load/vec4 v0x593b179e33d0_0;
    %assign/vec4 v0x593b179e37d0_0, 0;
T_1.1 ;
    %jmp T_1;
    .thread T_1;
    .scope S_0x593b179e1f70;
T_2 ;
    %wait E_0x593b179c6230;
    %load/vec4 v0x593b179e37d0_0;
    %dup/vec4;
    %pushi/vec4 0, 0, 2;
    %cmp/u;
    %jmp/1 T_2.0, 6;
    %dup/vec4;
    %pushi/vec4 1, 0, 2;
    %cmp/u;
    %jmp/1 T_2.1, 6;
    %dup/vec4;
    %pushi/vec4 2, 0, 2;
    %cmp/u;
    %jmp/1 T_2.2, 6;
    %pushi/vec4 0, 0, 2;
    %store/vec4 v0x593b179e33d0_0, 0, 2;
    %jmp T_2.4;
T_2.0 ;
    %load/vec4 v0x593b179e3250_0;
    %flag_set/vec4 8;
    %jmp/1 T_2.7, 8;
    %load/vec4 v0x593b179e3310_0;
    %flag_set/vec4 9;
    %flag_or 8, 9;
T_2.7;
    %jmp/0 T_2.5, 8;
    %pushi/vec4 1, 0, 2;
    %jmp/1 T_2.6, 8;
T_2.5 ; End of true expr.
    %pushi/vec4 0, 0, 2;
    %jmp/0 T_2.6, 8;
 ; End of false expr.
    %blend;
T_2.6;
    %store/vec4 v0x593b179e33d0_0, 0, 2;
    %jmp T_2.4;
T_2.1 ;
    %pushi/vec4 2, 0, 2;
    %store/vec4 v0x593b179e33d0_0, 0, 2;
    %jmp T_2.4;
T_2.2 ;
    %load/vec4 v0x593b179e26e0_0;
    %flag_set/vec4 8;
    %jmp/0 T_2.8, 8;
    %pushi/vec4 0, 0, 2;
    %jmp/1 T_2.9, 8;
T_2.8 ; End of true expr.
    %pushi/vec4 2, 0, 2;
    %jmp/0 T_2.9, 8;
 ; End of false expr.
    %blend;
T_2.9;
    %store/vec4 v0x593b179e33d0_0, 0, 2;
    %jmp T_2.4;
T_2.4 ;
    %pop/vec4 1;
    %jmp T_2;
    .thread T_2, $push;
    .scope S_0x593b179e1f70;
T_3 ;
    %wait E_0x593b179c60a0;
    %load/vec4 v0x593b179e37d0_0;
    %cmpi/e 0, 0, 2;
    %jmp/0xz  T_3.0, 4;
    %load/vec4 v0x593b179e3310_0;
    %flag_set/vec4 8;
    %jmp/0xz  T_3.2, 8;
    %load/vec4 v0x593b179e2d70_0;
    %assign/vec4 v0x593b179e2e50_0, 0;
    %load/vec4 v0x593b179e38b0_0;
    %assign/vec4 v0x593b179e3990_0, 0;
    %pushi/vec4 1, 0, 1;
    %assign/vec4 v0x593b179e3a70_0, 0;
    %pushi/vec4 0, 0, 1;
    %assign/vec4 v0x593b179e3590_0, 0;
    %jmp T_3.3;
T_3.2 ;
    %load/vec4 v0x593b179e3250_0;
    %flag_set/vec4 8;
    %jmp/0xz  T_3.4, 8;
    %load/vec4 v0x593b179e2d70_0;
    %assign/vec4 v0x593b179e2e50_0, 0;
    %pushi/vec4 0, 0, 1;
    %assign/vec4 v0x593b179e3a70_0, 0;
    %pushi/vec4 1, 0, 1;
    %assign/vec4 v0x593b179e3590_0, 0;
T_3.4 ;
T_3.3 ;
T_3.0 ;
    %jmp T_3;
    .thread T_3;
    .scope S_0x593b179e1f70;
T_4 ;
    %wait E_0x593b179c61f0;
    %pushi/vec4 0, 0, 1;
    %store/vec4 v0x593b179e2780_0, 0, 1;
    %pushi/vec4 0, 0, 1;
    %store/vec4 v0x593b179e25a0_0, 0, 1;
    %pushi/vec4 0, 0, 1;
    %store/vec4 v0x593b179e2940_0, 0, 1;
    %pushi/vec4 0, 0, 32;
    %store/vec4 v0x593b179e24e0_0, 0, 32;
    %pushi/vec4 0, 0, 32;
    %store/vec4 v0x593b179e2870_0, 0, 32;
    %pushi/vec4 0, 0, 1;
    %store/vec4 v0x593b179e3650_0, 0, 1;
    %load/vec4 v0x593b179e37d0_0;
    %dup/vec4;
    %pushi/vec4 0, 0, 2;
    %cmp/u;
    %jmp/1 T_4.0, 6;
    %dup/vec4;
    %pushi/vec4 1, 0, 2;
    %cmp/u;
    %jmp/1 T_4.1, 6;
    %dup/vec4;
    %pushi/vec4 2, 0, 2;
    %cmp/u;
    %jmp/1 T_4.2, 6;
    %jmp T_4.3;
T_4.0 ;
    %pushi/vec4 1, 0, 1;
    %store/vec4 v0x593b179e3650_0, 0, 1;
    %jmp T_4.3;
T_4.1 ;
    %pushi/vec4 1, 0, 1;
    %store/vec4 v0x593b179e2780_0, 0, 1;
    %load/vec4 v0x593b179e3a70_0;
    %store/vec4 v0x593b179e2940_0, 0, 1;
    %load/vec4 v0x593b179e2e50_0;
    %store/vec4 v0x593b179e24e0_0, 0, 32;
    %load/vec4 v0x593b179e3990_0;
    %store/vec4 v0x593b179e2870_0, 0, 32;
    %jmp T_4.3;
T_4.2 ;
    %pushi/vec4 1, 0, 1;
    %store/vec4 v0x593b179e2780_0, 0, 1;
    %pushi/vec4 1, 0, 1;
    %store/vec4 v0x593b179e25a0_0, 0, 1;
    %load/vec4 v0x593b179e3a70_0;
    %store/vec4 v0x593b179e2940_0, 0, 1;
    %load/vec4 v0x593b179e2e50_0;
    %store/vec4 v0x593b179e24e0_0, 0, 32;
    %load/vec4 v0x593b179e3990_0;
    %store/vec4 v0x593b179e2870_0, 0, 32;
    %load/vec4 v0x593b179e26e0_0;
    %flag_set/vec4 8;
    %jmp/0xz  T_4.4, 8;
    %pushi/vec4 1, 0, 1;
    %store/vec4 v0x593b179e3650_0, 0, 1;
T_4.4 ;
    %jmp T_4.3;
T_4.3 ;
    %pop/vec4 1;
    %jmp T_4;
    .thread T_4, $push;
    .scope S_0x593b179e1f70;
T_5 ;
    %wait E_0x593b179c60a0;
    %load/vec4 v0x593b179e37d0_0;
    %cmpi/e 2, 0, 2;
    %flag_get/vec4 4;
    %jmp/0 T_5.3, 4;
    %load/vec4 v0x593b179e26e0_0;
    %and;
T_5.3;
    %flag_set/vec4 9;
    %flag_get/vec4 9;
    %jmp/0 T_5.2, 9;
    %load/vec4 v0x593b179e3590_0;
    %and;
T_5.2;
    %flag_set/vec4 8;
    %jmp/0xz  T_5.0, 8;
    %load/vec4 v0x593b179e2640_0;
    %assign/vec4 v0x593b179e34b0_0, 0;
T_5.0 ;
    %jmp T_5;
    .thread T_5;
    .scope S_0x593b179b1bd0;
T_6 ;
    %wait E_0x593b1794d1d0;
    %pushi/vec4 1, 0, 1;
    %dup/vec4;
    %load/vec4 v0x593b179e0ae0_0;
    %cmp/u;
    %jmp/1 T_6.0, 6;
    %dup/vec4;
    %load/vec4 v0x593b179e1230_0;
    %cmp/u;
    %jmp/1 T_6.1, 6;
    %dup/vec4;
    %load/vec4 v0x593b179e0c60_0;
    %cmp/u;
    %jmp/1 T_6.2, 6;
    %dup/vec4;
    %load/vec4 v0x593b179e0ea0_0;
    %cmp/u;
    %jmp/1 T_6.3, 6;
    %dup/vec4;
    %load/vec4 v0x593b179e0d20_0;
    %cmp/u;
    %jmp/1 T_6.4, 6;
    %dup/vec4;
    %load/vec4 v0x593b179e0de0_0;
    %cmp/u;
    %jmp/1 T_6.5, 6;
    %dup/vec4;
    %load/vec4 v0x593b179e0f60_0;
    %cmp/u;
    %jmp/1 T_6.6, 6;
    %dup/vec4;
    %load/vec4 v0x593b179e0ba0_0;
    %cmp/u;
    %jmp/1 T_6.7, 6;
    %pushi/vec4 0, 0, 32;
    %store/vec4 v0x593b179df910_0, 0, 32;
    %jmp T_6.9;
T_6.0 ;
    %load/vec4 v0x593b179dff00_0;
    %store/vec4 v0x593b179df910_0, 0, 32;
    %jmp T_6.9;
T_6.1 ;
    %load/vec4 v0x593b179e17b0_0;
    %store/vec4 v0x593b179df910_0, 0, 32;
    %jmp T_6.9;
T_6.2 ;
    %load/vec4 v0x593b179e03c0_0;
    %store/vec4 v0x593b179df910_0, 0, 32;
    %jmp T_6.9;
T_6.3 ;
    %load/vec4 v0x593b179e12f0_0;
    %store/vec4 v0x593b179df910_0, 0, 32;
    %jmp T_6.9;
T_6.4 ;
    %load/vec4 v0x593b179e0620_0;
    %store/vec4 v0x593b179df910_0, 0, 32;
    %jmp T_6.9;
T_6.5 ;
    %load/vec4 v0x593b179e0880_0;
    %store/vec4 v0x593b179df910_0, 0, 32;
    %jmp T_6.9;
T_6.6 ;
    %load/vec4 v0x593b179e1550_0;
    %store/vec4 v0x593b179df910_0, 0, 32;
    %jmp T_6.9;
T_6.7 ;
    %load/vec4 v0x593b179e0160_0;
    %store/vec4 v0x593b179df910_0, 0, 32;
    %jmp T_6.9;
T_6.9 ;
    %pop/vec4 1;
    %jmp T_6;
    .thread T_6, $push;
    .scope S_0x593b179b1bd0;
T_7 ;
    %wait E_0x593b17962490;
    %pushi/vec4 1, 0, 1;
    %dup/vec4;
    %load/vec4 v0x593b179e0ae0_0;
    %cmp/u;
    %jmp/1 T_7.0, 6;
    %dup/vec4;
    %load/vec4 v0x593b179e1230_0;
    %cmp/u;
    %jmp/1 T_7.1, 6;
    %dup/vec4;
    %load/vec4 v0x593b179e0c60_0;
    %cmp/u;
    %jmp/1 T_7.2, 6;
    %dup/vec4;
    %load/vec4 v0x593b179e0ea0_0;
    %cmp/u;
    %jmp/1 T_7.3, 6;
    %dup/vec4;
    %load/vec4 v0x593b179e0d20_0;
    %cmp/u;
    %jmp/1 T_7.4, 6;
    %dup/vec4;
    %load/vec4 v0x593b179e0de0_0;
    %cmp/u;
    %jmp/1 T_7.5, 6;
    %dup/vec4;
    %load/vec4 v0x593b179e0f60_0;
    %cmp/u;
    %jmp/1 T_7.6, 6;
    %dup/vec4;
    %load/vec4 v0x593b179e0ba0_0;
    %cmp/u;
    %jmp/1 T_7.7, 6;
    %pushi/vec4 1, 0, 1;
    %store/vec4 v0x593b179dfa40_0, 0, 1;
    %jmp T_7.9;
T_7.0 ;
    %load/vec4 v0x593b179dffe0_0;
    %store/vec4 v0x593b179dfa40_0, 0, 1;
    %jmp T_7.9;
T_7.1 ;
    %load/vec4 v0x593b179e1890_0;
    %store/vec4 v0x593b179dfa40_0, 0, 1;
    %jmp T_7.9;
T_7.2 ;
    %load/vec4 v0x593b179e04a0_0;
    %store/vec4 v0x593b179dfa40_0, 0, 1;
    %jmp T_7.9;
T_7.3 ;
    %load/vec4 v0x593b179e13d0_0;
    %store/vec4 v0x593b179dfa40_0, 0, 1;
    %jmp T_7.9;
T_7.4 ;
    %load/vec4 v0x593b179e0700_0;
    %store/vec4 v0x593b179dfa40_0, 0, 1;
    %jmp T_7.9;
T_7.5 ;
    %load/vec4 v0x593b179e0960_0;
    %store/vec4 v0x593b179dfa40_0, 0, 1;
    %jmp T_7.9;
T_7.6 ;
    %load/vec4 v0x593b179e1630_0;
    %store/vec4 v0x593b179dfa40_0, 0, 1;
    %jmp T_7.9;
T_7.7 ;
    %load/vec4 v0x593b179e0240_0;
    %store/vec4 v0x593b179dfa40_0, 0, 1;
    %jmp T_7.9;
T_7.9 ;
    %pop/vec4 1;
    %jmp T_7;
    .thread T_7, $push;
    .scope S_0x593b179e4970;
T_8 ;
    %wait E_0x593b179e4bf0;
    %load/vec4 v0x593b179e4e70_0;
    %flag_set/vec4 8;
    %jmp/0xz  T_8.0, 8;
    %load/vec4 v0x593b179e51d0_0;
    %flag_set/vec4 8;
    %jmp/0xz  T_8.2, 8;
    %load/vec4 v0x593b179e4f40_0;
    %store/vec4 v0x593b179e4fe0_0, 0, 32;
    %jmp T_8.3;
T_8.2 ;
    %load/vec4 v0x593b179e5110_0;
    %store/vec4 v0x593b179e4fe0_0, 0, 32;
T_8.3 ;
    %jmp T_8.1;
T_8.0 ;
    %pushi/vec4 0, 0, 32;
    %store/vec4 v0x593b179e4fe0_0, 0, 32;
T_8.1 ;
    %jmp T_8;
    .thread T_8, $push;
    .scope S_0x593b179b1f80;
T_9 ;
    %delay 5000, 0;
    %load/vec4 v0x593b179e8be0_0;
    %inv;
    %store/vec4 v0x593b179e8be0_0, 0, 1;
    %jmp T_9;
    .thread T_9;
    .scope S_0x593b179b1f80;
T_10 ;
    %vpi_call 2 92 "$dumpfile", "apb_top.vcd" {0 0 0};
    %vpi_call 2 93 "$dumpvars", 32'sb00000000000000000000000000000000, S_0x593b179b1f80 {0 0 0};
    %pushi/vec4 0, 0, 1;
    %store/vec4 v0x593b179e8be0_0, 0, 1;
    %pushi/vec4 1, 0, 1;
    %store/vec4 v0x593b179e9610_0, 0, 1;
    %pushi/vec4 0, 0, 32;
    %store/vec4 v0x593b179e86d0_0, 0, 32;
    %pushi/vec4 0, 0, 32;
    %store/vec4 v0x593b179e9df0_0, 0, 32;
    %pushi/vec4 0, 0, 1;
    %store/vec4 v0x593b179e9190_0, 0, 1;
    %pushi/vec4 0, 0, 1;
    %store/vec4 v0x593b179e9280_0, 0, 1;
    %pushi/vec4 2864434397, 0, 32;
    %store/vec4 v0x593b179e9bf0_0, 0, 32;
    %pushi/vec4 305419896, 0, 32;
    %store/vec4 v0x593b179e8cd0_0, 0, 32;
    %pushi/vec4 3405691582, 0, 32;
    %store/vec4 v0x593b179e9700_0, 0, 32;
    %pushi/vec4 3735928559, 0, 32;
    %store/vec4 v0x593b179e87b0_0, 0, 32;
    %pushi/vec4 195935983, 0, 32;
    %store/vec4 v0x593b179e8ed0_0, 0, 32;
    %pushi/vec4 4277009102, 0, 32;
    %store/vec4 v0x593b179e9320_0, 0, 32;
    %pushi/vec4 287445282, 0, 32;
    %store/vec4 v0x593b179e99f0_0, 0, 32;
    %pushi/vec4 860107588, 0, 32;
    %store/vec4 v0x593b179e89b0_0, 0, 32;
    %pushi/vec4 287454020, 0, 32;
    %store/vec4 v0x593b179e9080_0, 0, 32;
    %pushi/vec4 1, 0, 1;
    %store/vec4 v0x593b179e9d00_0, 0, 1;
    %pushi/vec4 1, 0, 1;
    %store/vec4 v0x593b179e8de0_0, 0, 1;
    %pushi/vec4 1, 0, 1;
    %store/vec4 v0x593b179e9810_0, 0, 1;
    %pushi/vec4 1, 0, 1;
    %store/vec4 v0x593b179e88c0_0, 0, 1;
    %pushi/vec4 1, 0, 1;
    %store/vec4 v0x593b179e8f90_0, 0, 1;
    %pushi/vec4 1, 0, 1;
    %store/vec4 v0x593b179e9410_0, 0, 1;
    %pushi/vec4 1, 0, 1;
    %store/vec4 v0x593b179e9b00_0, 0, 1;
    %pushi/vec4 1, 0, 1;
    %store/vec4 v0x593b179e8aa0_0, 0, 1;
    %delay 20000, 0;
    %pushi/vec4 0, 0, 1;
    %store/vec4 v0x593b179e9610_0, 0, 1;
    %vpi_call 2 129 "$display", "\012=== TEST 1: MEMORY READ ===" {0 0 0};
    %pushi/vec4 4, 0, 32;
    %store/vec4 v0x593b179e86d0_0, 0, 32;
    %pushi/vec4 1, 0, 1;
    %store/vec4 v0x593b179e9190_0, 0, 1;
    %delay 10000, 0;
    %vpi_call 2 134 "$display", "MEM READ -> rdata=%h stall=%b", v0x593b179e9500_0, v0x593b179e9900_0 {0 0 0};
    %pushi/vec4 0, 0, 1;
    %store/vec4 v0x593b179e9190_0, 0, 1;
    %delay 20000, 0;
    %vpi_call 2 142 "$display", "\012=== TEST 2: MEMORY WRITE ===" {0 0 0};
    %pushi/vec4 8, 0, 32;
    %store/vec4 v0x593b179e86d0_0, 0, 32;
    %pushi/vec4 3735928559, 0, 32;
    %store/vec4 v0x593b179e9df0_0, 0, 32;
    %pushi/vec4 1, 0, 1;
    %store/vec4 v0x593b179e9280_0, 0, 1;
    %delay 10000, 0;
    %vpi_call 2 148 "$display", "MEM WRITE -> stall=%b", v0x593b179e9900_0 {0 0 0};
    %pushi/vec4 0, 0, 1;
    %store/vec4 v0x593b179e9280_0, 0, 1;
    %delay 20000, 0;
    %vpi_call 2 156 "$display", "\012=== TEST 3: APB READ (UART delayed) ===" {0 0 0};
    %pushi/vec4 1073745920, 0, 32;
    %store/vec4 v0x593b179e86d0_0, 0, 32;
    %pushi/vec4 1, 0, 1;
    %store/vec4 v0x593b179e9190_0, 0, 1;
    %pushi/vec4 0, 0, 1;
    %store/vec4 v0x593b179e9d00_0, 0, 1;
    %delay 10000, 0;
    %vpi_call 2 162 "$display", "Cycle1 stall=%b", v0x593b179e9900_0 {0 0 0};
    %delay 10000, 0;
    %vpi_call 2 163 "$display", "Cycle2 stall=%b", v0x593b179e9900_0 {0 0 0};
    %pushi/vec4 1, 0, 1;
    %store/vec4 v0x593b179e9d00_0, 0, 1;
    %delay 10000, 0;
    %vpi_call 2 166 "$display", "APB DONE -> rdata=%h stall=%b", v0x593b179e9500_0, v0x593b179e9900_0 {0 0 0};
    %pushi/vec4 0, 0, 1;
    %store/vec4 v0x593b179e9190_0, 0, 1;
    %delay 20000, 0;
    %vpi_call 2 175 "$display", "\012=== TEST 4: APB WRITE ===" {0 0 0};
    %pushi/vec4 1073745920, 0, 32;
    %store/vec4 v0x593b179e86d0_0, 0, 32;
    %pushi/vec4 3405697037, 0, 32;
    %store/vec4 v0x593b179e9df0_0, 0, 32;
    %pushi/vec4 1, 0, 1;
    %store/vec4 v0x593b179e9280_0, 0, 1;
    %pushi/vec4 0, 0, 1;
    %store/vec4 v0x593b179e9d00_0, 0, 1;
    %delay 10000, 0;
    %pushi/vec4 1, 0, 1;
    %store/vec4 v0x593b179e9d00_0, 0, 1;
    %delay 10000, 0;
    %vpi_call 2 186 "$display", "APB WRITE DONE stall=%b", v0x593b179e9900_0 {0 0 0};
    %pushi/vec4 0, 0, 1;
    %store/vec4 v0x593b179e9280_0, 0, 1;
    %delay 20000, 0;
    %vpi_call 2 194 "$display", "\012=== TEST 5: BACK-TO-BACK ===" {0 0 0};
    %pushi/vec4 1073745920, 0, 32;
    %store/vec4 v0x593b179e86d0_0, 0, 32;
    %pushi/vec4 1, 0, 1;
    %store/vec4 v0x593b179e9190_0, 0, 1;
    %pushi/vec4 0, 0, 1;
    %store/vec4 v0x593b179e9d00_0, 0, 1;
    %delay 10000, 0;
    %pushi/vec4 4, 0, 32;
    %store/vec4 v0x593b179e86d0_0, 0, 32;
    %pushi/vec4 1, 0, 1;
    %store/vec4 v0x593b179e9190_0, 0, 1;
    %pushi/vec4 1, 0, 1;
    %store/vec4 v0x593b179e9d00_0, 0, 1;
    %delay 10000, 0;
    %vpi_call 2 210 "$display", "After switch -> rdata=%h stall=%b", v0x593b179e9500_0, v0x593b179e9900_0 {0 0 0};
    %pushi/vec4 0, 0, 1;
    %store/vec4 v0x593b179e9190_0, 0, 1;
    %delay 20000, 0;
    %vpi_call 2 219 "$display", "\012=== TEST 6: MULTI PERIPHERAL SWITCH ===" {0 0 0};
    %pushi/vec4 1073745920, 0, 32;
    %store/vec4 v0x593b179e86d0_0, 0, 32;
    %pushi/vec4 1, 0, 1;
    %store/vec4 v0x593b179e9190_0, 0, 1;
    %delay 10000, 0;
    %pushi/vec4 1073750016, 0, 32;
    %store/vec4 v0x593b179e86d0_0, 0, 32;
    %delay 10000, 0;
    %pushi/vec4 1073754112, 0, 32;
    %store/vec4 v0x593b179e86d0_0, 0, 32;
    %delay 10000, 0;
    %vpi_call 2 231 "$display", "SPI READ -> rdata=%h", v0x593b179e9500_0 {0 0 0};
    %pushi/vec4 0, 0, 1;
    %store/vec4 v0x593b179e9190_0, 0, 1;
    %delay 20000, 0;
    %vpi_call 2 240 "$display", "\012=== TEST 7: RANDOM PREADY ===" {0 0 0};
    %pushi/vec4 1073745920, 0, 32;
    %store/vec4 v0x593b179e86d0_0, 0, 32;
    %pushi/vec4 1, 0, 1;
    %store/vec4 v0x593b179e9190_0, 0, 1;
    %pushi/vec4 5, 0, 32;
T_10.0 %dup/vec4;
    %pushi/vec4 0, 0, 32;
    %cmp/s;
    %jmp/1xz T_10.1, 5;
    %jmp/1 T_10.1, 4;
    %pushi/vec4 1, 0, 32;
    %sub;
    %vpi_func 2 246 "$random" 32 {0 0 0};
    %pushi/vec4 2, 0, 32;
    %mod/s;
    %pad/s 1;
    %store/vec4 v0x593b179e9d00_0, 0, 1;
    %delay 10000, 0;
    %vpi_call 2 248 "$display", "Random cycle stall=%b ready=%b", v0x593b179e9900_0, v0x593b179e9d00_0 {0 0 0};
    %jmp T_10.0;
T_10.1 ;
    %pop/vec4 1;
    %pushi/vec4 1, 0, 1;
    %store/vec4 v0x593b179e9d00_0, 0, 1;
    %delay 10000, 0;
    %vpi_call 2 253 "$display", "Final READ -> rdata=%h", v0x593b179e9500_0 {0 0 0};
    %pushi/vec4 0, 0, 1;
    %store/vec4 v0x593b179e9190_0, 0, 1;
    %delay 20000, 0;
    %vpi_call 2 262 "$display", "\012=== TEST 8: INVALID ADDRESS ===" {0 0 0};
    %pushi/vec4 2415919104, 0, 32;
    %store/vec4 v0x593b179e86d0_0, 0, 32;
    %pushi/vec4 1, 0, 1;
    %store/vec4 v0x593b179e9190_0, 0, 1;
    %delay 10000, 0;
    %vpi_call 2 268 "$display", "INVALID ADDR -> rdata=%h stall=%b", v0x593b179e9500_0, v0x593b179e9900_0 {0 0 0};
    %pushi/vec4 0, 0, 1;
    %store/vec4 v0x593b179e9190_0, 0, 1;
    %delay 20000, 0;
    %vpi_call 2 277 "$display", "\012=== ALL TESTS DONE ===" {0 0 0};
    %vpi_call 2 278 "$finish" {0 0 0};
    %end;
    .thread T_10;
    .scope S_0x593b179b1f80;
T_11 ;
    %vpi_call 2 281 "$monitor", "T=%0t state=%b busy=%b PSEL=%b PENABLE=%b PREADY=%b ready=%b stall=%b", $time, v0x593b179e6310_0, v0x593b179e6070_0, v0x593b179e5a20_0, v0x593b179e5630_0, v0x593b179e5930_0, v0x593b179e6270_0, v0x593b179e8000_0 {0 0 0};
    %end;
    .thread T_11;
# The file index is used to find the file name in the following table.
:file_names 8;
    "N/A";
    "<interactive>";
    "tb.v";
    "apb_top.v";
    "apb_bus.v";
    "apb_master.v";
    "addr_decoder.v";
    "mem_apb_mux.v";
